*Bms.13.81.9.5
#命令名称；文本命令行（如有）；ID（10进制整数）；类型（1#命令名称；文本命令行（如有）；ID（10进制整数）；类型（1,2,3,4,5,6,16等）；地址（4字节整数）；数据长度（4字节长度）；
#数据类型（返回数据，0 Ushort;1:UFloat小数.;2byte;3Uint32;4string ;5  short; 6float;7int32                                         
#默认short；浮点数的矫正（浮点数；整数可以为1）；返回数据；返回结果
#0
读取39个寄存器;020320010027EA23;03;2001;0027;4;1
读取30个寄存器;02032001001E2A31;03;2001;001E;4;1
运行状态;020320010001FD30;03;2001;0001;0;1
预充电阶段;0203200200019BF9;03;2002;0001;0;1
接触器状态;020320030001CA39;03;2003;0001;0;1
#5
故障;0204200400017BF8;03;2004;0001;0;1
一级报警;0204200500012A38;03;2005;0001;0;1
二级报警;020420060001DA38;03;2006;0001;0;1
三级报警;0204200700018B8F;03;2007;0001;0;1
切入失败原因;020420080001BBEB;03;2008;0001;0;1
#10
未启动切入原因;020420090001EA3B;03;2009;0001;0;1
预充总压;0204200A00017BF8;03;200A;0001;1;0.1
电池总电压;0204200B00017BF8;03;200B;0001;1;0.1
电池总电流;0204200C00017BF8;03;200C;0001;6;0.1
充放电指示;0204200D00017BF8;03;200D;0001;0;1
#15
SOC;0204200E00017BF8;03;200E;0001;1;0.1
SOH;0204200F00017BF8;03;200F;0001;1;0.1
绝缘值;0204201000017BF8;03;2010;0001;1;1
正极绝缘值;0204201100017BF8;03;2011;0001;1;1
负极绝缘值;0204201200017BF8;03;2012;0001;1;1
#20
最大充电电流;0204201300017BF8;03;2013;0001;1;0.1
最大放电电流;0204201400017BF8;03;2014;0001;1;0.1
单体电压最高节序号;0204201500017BF8;03;2015;0001;0;1
单体最高电压值;0204201600017BF8;03;2016;0001;1;0.001
单体电压最低节序号;0204201700017BF8;03;2017;0001;0;1
#25
单体最低电压值;0204201800017BF8;03;2018;0001;1;0.001
单体温度最高节序号;0204201900017BF8;03;2019;0001;0;1
单体温度最高值;0204201A00017BF8;03;201A;0001;6;0.1
单体温度最低节序号;0204201B00017BF8;03;201B;0001;0;1
单体温度最低值;0204201C0001FBFF;03;201C;0001;6;0.1
#30
平均电压;0204201D0001AA3F;03;201D;0001;1;0.001
平均温度;0204201E00015A3F;03;201E;0001;6;0.1
BMU1-16通信状态;020422A000013BA3;03;22A0;0001;0;1
#33
001-120电池电压;020424000078FAEB;03;2400;0078;4;0.001
121-240电池电压;020424000078FAEB;03;2478;0078;4;0.001
#35
001-120电池温度;0203260000784E93;03;2600;0054;4;0.1
121-240电池温度;020326780078CE8A;03;2654;0054;4;0.1
预充控制停机;020600010000D839;06;0001;0000;0;1
预充控制启机;02060001000119F9;06;0001;0001;0;1
#39
状态7(2-8);02;03;2001;0007;4;0.001
状态值15H(6-27);02;03;200A;0015;4;0.001  
#41
高压箱温度1;02;03;2020;0001;1;0.1
高压箱温度2;02;03;2021;0001;1;0.1
高压箱温度3;02;03;2022;0001;1;0.1
高压箱温度4;02;03;2023;0001;1;0.1
#45
高压箱温度4个;02;03;2020;0004;4;0.001
Pack1正极柱温度FH;02;03;2220;000F;4;0.001  
Pack1负极柱温度FH;02;03;2260;000F;4;0.001  
#48
Rack单体过压一级报警门限;02;03;3001;0001;1;0.001
Rack单体过压一级恢复门限;02;03;3002;0001;1;0.001
Rack单体过压二级报警门限;02;03;3023;0001;1;0.001
Rack单体过压二级恢复门限;02;03;3024;0001;1;0.001
Rack单体过压三级报警门限;02;03;3045;0001;1;0.001
Rack单体过压三级恢复门限;02;03;3046;0001;1;0.001
#54
Rack单体过压一级报警门限设置;02;06;3001;0001;1;0.001
Rack单体过压一级恢复门限设置;02;06;3002;0001;1;0.001
Rack单体过压二级报警门限设置;02;06;3023;0001;1;0.001
Rack单体过压二级恢复门限设置;02;06;3024;0001;1;0.001
Rack单体过压三级报警门限设置;02;06;3045;0001;1;0.001
Rack单体过压三级恢复门限设置;02;06;3046;0001;1;0.001
#60
设置被动均衡开关1;02;06;0005;0001;0;1
设置被动均衡开关2;02;06;0006;0001;0;1
设置被动均衡开关3;02;06;0007;0001;0;1
设置被动均衡开关4;02;06;0008;0001;0;1
设置被动均衡开关5;02;06;0009;0001;0;1
设置被动均衡开关6;02;06;000A;0001;0;1
设置被动均衡开关7;02;06;000B;0001;0;1
设置被动均衡开关8;02;06;000C;0001;0;1
设置被动均衡开关9;02;06;000D;0001;0;1
设置被动均衡开关10;02;06;000E;0001;0;1
设置被动均衡开关11;02;06;000F;0001;0;1
设置被动均衡开关12;02;06;0010;0001;0;1
设置被动均衡开关13;02;06;0011;0001;0;1
设置被动均衡开关14;02;06;0012;0001;0;1
设置被动均衡开关15;02;06;0013;0001;0;1
设置被动均衡开关16;02;06;0014;0001;0;1
设置被动均衡开关17;02;06;0015;0001;0;1
设置被动均衡开关18;02;06;0016;0001;0;1
设置被动均衡开关19;02;06;0017;0001;0;1
设置被动均衡开关20;02;06;0018;0001;0;1
设置被动均衡开关21;02;06;0019;0001;0;1
设置被动均衡开关22;02;06;001A;0001;0;1
设置被动均衡开关23;02;06;001B;0001;0;1
设置被动均衡开关24;02;06;001C;0001;0;1
设置被动均衡开关25;02;06;001D;0001;0;1
#85
读取被动均衡开关1;02;03;2034;0001;0;1
读取被动均衡开关2;02;03;2035;0001;0;1
读取被动均衡开关3;02;03;2036;0001;0;1
读取被动均衡开关4;02;03;2037;0001;0;1
读取被动均衡开关5;02;03;2038;0001;0;1
读取被动均衡开关6;02;03;2039;0001;0;1
读取被动均衡开关7;02;03;203A;0001;0;1
读取被动均衡开关8;02;03;203B;0001;0;1
读取被动均衡开关9;02;03;203C;0001;0;1
读取被动均衡开关10;02;03;203D;0001;0;1
读取被动均衡开关11;02;03;203E;0001;0;1
读取被动均衡开关12;02;03;203F;0001;0;1
读取被动均衡开关13;02;03;2040;0001;0;1
读取被动均衡开关14;02;03;2041;0001;0;1
读取被动均衡开关15;02;03;2042;0001;0;1
读取被动均衡开关16;02;03;2043;0001;0;1
读取被动均衡开关17;02;03;2044;0001;0;1
读取被动均衡开关18;02;03;2045;0001;0;1
读取被动均衡开关19;02;03;2046;0001;0;1
读取被动均衡开关20;02;03;2047;0001;0;1
读取被动均衡开关21;02;03;2048;0001;0;1
读取被动均衡开关22;02;03;2049;0001;0;1
读取被动均衡开关23;02;03;204A;0001;0;1
读取被动均衡开关24;02;03;204B;0001;0;1
读取被动均衡开关25;02;03;204C;0001;0;1
#110
读取25个被动均衡寄存器;02;03;2034;0019;4;1
#111
可充电量;02;03;2028;0001;0;1
可放电量;02;03;2029;0001;0;1
001-130电池电压;020424000078FAEB;03;2400;0082;4;0.001
131-260电池电压;020424000078FAEB;03;2482;0082;4;0.001
#115
SOC值;02;03;3067;0001;0;0.1
启动SOC时间平滑;02;03;306C;0001;0;1
SOH校准开关;02;03;306D;0001;0;1
最大单体SOC值;02;03;306E;0001;0;0.1
最小单体SOC值;02;03;306F;0001;0;0.1
最大最小单体SOC差值;02;03;3070;0001;0;0.1
LastMaxBatQ;02;03;3071;0001;0;1
LastMinBatQ;02;03;3072;0001;0;1
充满校准最小平均电压;02;03;3073;0001;0;1
放空校准最大平均电压;02;03;3074;0001;0;1
充满放空压差;02;03;3075;0001;0;1
SOH偏移;02;03;3076;0001;0;1
标称容量;02;03;3077;0001;0;1
时间平滑最大追随时间;02;03;3078;0001;0;1
充满时间平滑SOC目标;02;03;3079;0001;0;1
放空时间平滑SOC目标;02;03;307A;0001;0;1
充满时间平滑起始电压;02;03;307B;0001;0;1
放空时间平滑起始电压;02;03;307C;0001;0;1
总正接触器使用次数;02;03;307D;0001;0;1
总预充接触器使用次数;02;03;307E;0001;0;1
总负接触器使用次数;02;03;307F;0001;0;1
主控软件项目编号;02;03;3080;0001;0;1
主控软件主版本号;02;03;3081;0001;0;1
主控软件子版本号;02;03;3082;0001;0;1
主控软件修正版本号;02;03;3083;0001;0;1
#140
读取版本号;02;03;3080;0004;4;1
读取116-135的数据;02;03;306C;0014;4;1
#142
SOC值;02;06;3067;0001;0;0.1
启动SOC时间平滑;02;06;306C;0001;0;1
SOH校准开关;02;06;306D;0001;0;1
最大单体SOC值;02;06;306E;0001;0;0.1
最小单体SOC值;02;06;306F;0001;0;0.1
最大最小单体SOC差值;02;06;3070;0001;0;0.1
LastMaxBatQ;02;06;3071;0001;0;1
LastMinBatQ;02;06;3072;0001;0;1
充满校准最小平均电压;02;06;3073;0001;0;1
放空校准最大平均电压;02;06;3074;0001;0;1
充满放空压差;02;06;3075;0001;0;1
SOH偏移;02;06;3076;0001;0;1
标称容量;02;06;3077;0001;0;1
时间平滑最大追随时间;02;06;3078;0001;0;1
充满时间平滑SOC目标;02;06;3079;0001;0;1
放空时间平滑SOC目标;02;06;307A;0001;0;1
充满时间平滑起始电压;02;06;307B;0001;0;1
放空时间平滑起始电压;02;06;307C;0001;0;1
#02 03 23 00 00 2A CF A2  
#02 03 23 2D 00 02 5F B5  
#02 03 23 32 00 03 AF B3   
#02 03 30 01 00 10 1A F5  
#02 03 30 13 00 06 3B 3E  
#02 03 30 1B 00 08 3B 38  
#02 03 30 67 00 05 3B 25  
#02 03 00 03 00 02 34 38 